T2098 000:042.642   SEGGER J-Link V6.86f Log File
T2098 000:043.013   DLL Compiled: Oct 23 2020 18:00:13
T2098 000:043.021   Logging started @ 2022-08-24 10:32
T2098 000:043.028 - 43.032ms
T2098 000:043.042 JLINK_SetWarnOutHandler(...)
T2098 000:043.051 - 0.012ms
T2098 000:043.060 JLINK_OpenEx(...)
T2098 000:044.654   Firmware: J-Link V9 compiled May  7 2021 16:26:12
T2098 000:044.873   Decompressing FW timestamp took 179 us
T2098 000:050.869   Hardware: V9.70
T2098 000:050.885   S/N: 150718488
T2098 000:050.898   OEM: SEGGER
T2098 000:050.908   Feature(s): GDB, RDI, FlashBP, FlashDL, JFlash
T2098 000:051.854   TELNET listener socket opened on port 19021
T2098 000:051.959   WEBSRV Starting webserver
T2098 000:052.114   WEBSRV Webserver running on local port 19080
T2098 000:052.128 - 9.071ms returns "O.K."
T2098 000:052.148 JLINK_GetEmuCaps()
T2098 000:052.155 - 0.010ms returns 0xB9FF7BBF
T2098 000:052.169 JLINK_TIF_GetAvailable(...)
T2098 000:052.281 - 0.120ms
T2098 000:052.300 JLINK_SetErrorOutHandler(...)
T2098 000:052.308 - 0.011ms
T2098 000:052.328 JLINK_ExecCommand("ProjectFile = "G:\KEIL5_PROJ\RT1050\EVKB\GrblHAL-MIMXRT1052\JLinkSettings.ini"", ...). 
T2098 000:061.465   Ref file found at: D:\Keil_v5\ARM\Segger\JLinkDevices.ref
T2098 000:061.583   XML referenced by ref file: C:\Program Files (x86)\SEGGER\JLink\JLinkDevices.xml
T2098 000:061.622   XML file found at: D:\Keil_v5\ARM\Segger\JLinkDevices.xml
T2098 000:061.630   Ignoring XML in DLL dir and using ref file instead.
T2098 000:062.439   C:\Program Files (x86)\SEGGER\JLink\JLinkDevices.xml evaluated successfully.
T2098 000:104.030 - 51.714ms returns 0x00
T2098 000:104.081 JLINK_ExecCommand("Device = MIMXRT1052DVL6B", ...). 
T2098 000:112.702   Device "MIMXRT1052DVL6B" selected.
T2098 000:113.313 - 9.195ms returns 0x00
T2098 000:113.342 JLINK_GetHardwareVersion()
T2098 000:113.349 - 0.011ms returns 97000
T2098 000:113.358 JLINK_GetDLLVersion()
T2098 000:113.365 - 0.010ms returns 68606
T2098 000:113.374 JLINK_GetOEMString(...)
T2098 000:113.389 JLINK_GetFirmwareString(...)
T2098 000:113.398 - 0.012ms
T2098 000:113.430 JLINK_GetDLLVersion()
T2098 000:113.438 - 0.010ms returns 68606
T2098 000:113.447 JLINK_GetCompileDateTime()
T2098 000:113.453 - 0.010ms
T2098 000:113.469 JLINK_GetFirmwareString(...)
T2098 000:113.476 - 0.010ms
T2098 000:113.489 JLINK_GetHardwareVersion()
T2098 000:113.496 - 0.010ms returns 97000
T2098 000:113.510 JLINK_GetSN()
T2098 000:113.517 - 0.010ms returns 150718488
T2098 000:113.530 JLINK_GetOEMString(...)
T2098 000:113.595 JLINK_TIF_Select(JLINKARM_TIF_SWD)
T2098 000:114.237 - 0.651ms returns 0x00
T2098 000:114.255 JLINK_HasError()
T2098 000:114.274 JLINK_SetSpeed(20000)
T2098 000:114.379 - 0.113ms
T2098 000:114.397 JLINK_GetId()
T2098 000:114.710   InitTarget() start
T2098 000:114.728    J-Link Script File: Executing InitTarget()
T2098 000:114.748   InitTarget()
T2098 000:116.901   _TargetHalt: CPU halted
T2098 000:116.928   InitTarget() end
T2098 000:117.412   Found SW-DP with ID 0x0BD11477
T2098 000:118.738   DPIDR: 0x0BD11477
T2098 000:118.769   Scanning AP map to find all available APs
T2098 000:119.300   AP[1]: Stopped AP scan as end of AP map has been reached
T2098 000:119.321   AP[0]: AHB-AP (IDR: 0x04770041)
T2098 000:119.336   Iterating through AP map to find AHB-AP to use
T2098 000:120.019   AP[0]: Core found
T2098 000:120.041   AP[0]: AHB-AP ROM base: 0xE00FD000
T2098 000:120.383   CPUID register: 0x411FC271. Implementer code: 0x41 (ARM)
T2098 000:120.405   Found Cortex-M7 r1p1, Little endian.
T2098 000:221.687   -- Max. mem block: 0x00010E60
T2098 000:222.194   CPU_ReadMem(4 bytes @ 0xE000EDF0)
T2098 000:222.488   CPU_ReadMem(4 bytes @ 0xE0002000)
T2098 000:222.807   FPUnit: 8 code (BP) slots and 0 literal slots
T2098 000:222.824   CPU_ReadMem(4 bytes @ 0xE000EDFC)
T2098 000:223.180   CPU_WriteMem(4 bytes @ 0xE000EDFC)
T2098 000:223.460   CPU_ReadMem(4 bytes @ 0xE0001000)
T2098 000:223.744   CPU_WriteMem(4 bytes @ 0xE0001000)
T2098 000:223.993   CPU_ReadMem(4 bytes @ 0xE000ED88)
T2098 000:224.294   CPU_WriteMem(4 bytes @ 0xE000ED88)
T2098 000:224.558   CPU_ReadMem(4 bytes @ 0xE000ED88)
T2098 000:224.781   CPU_WriteMem(4 bytes @ 0xE000ED88)
T2098 000:225.162   CoreSight components:
T2098 000:225.183   ROMTbl[0] @ E00FD000
T2098 000:225.195   CPU_ReadMem(64 bytes @ 0xE00FD000)
T2098 000:225.594   CPU_ReadMem(32 bytes @ 0xE00FEFE0)
T2098 000:225.886   ROMTbl[0][0]: E00FE000, CID: B105100D, PID: 000BB4C8 ROM Table
T2098 000:225.905   ROMTbl[1] @ E00FE000
T2098 000:225.916   CPU_ReadMem(64 bytes @ 0xE00FE000)
T2098 000:226.322   CPU_ReadMem(32 bytes @ 0xE00FFFE0)
T2098 000:226.616   ROMTbl[1][0]: E00FF000, CID: B105100D, PID: 000BB4C7 ROM Table
T2098 000:226.635   ROMTbl[2] @ E00FF000
T2098 000:226.646   CPU_ReadMem(64 bytes @ 0xE00FF000)
T2098 000:227.038   CPU_ReadMem(32 bytes @ 0xE000EFE0)
T2098 000:227.369   ROMTbl[2][0]: E000E000, CID: B105E00D, PID: 000BB00C SCS-M7
T2098 000:227.384   CPU_ReadMem(32 bytes @ 0xE0001FE0)
T2098 000:227.679   ROMTbl[2][1]: E0001000, CID: B105E00D, PID: 000BB002 DWT
T2098 000:227.694   CPU_ReadMem(32 bytes @ 0xE0002FE0)
T2098 000:227.995   ROMTbl[2][2]: E0002000, CID: B105E00D, PID: 000BB00E FPB-M7
T2098 000:228.010   CPU_ReadMem(32 bytes @ 0xE0000FE0)
T2098 000:228.349   ROMTbl[2][3]: E0000000, CID: B105E00D, PID: 000BB001 ITM
T2098 000:228.364   CPU_ReadMem(32 bytes @ 0xE0041FE0)
T2098 000:228.665   ROMTbl[1][1]: E0041000, CID: B105900D, PID: 001BB975 ETM-M7
T2098 000:228.680   CPU_ReadMem(32 bytes @ 0xE0042FE0)
T2098 000:228.975   ROMTbl[1][2]: E0042000, CID: B105900D, PID: 004BB906 CTI
T2098 000:228.990   CPU_ReadMem(32 bytes @ 0xE0040FE0)
T2098 000:229.307   ROMTbl[0][1]: E0040000, CID: B105900D, PID: 000BB9A9 TPIU-M7
T2098 000:229.321   CPU_ReadMem(32 bytes @ 0xE0043FE0)
T2098 000:229.615   ROMTbl[0][2]: E0043000, CID: B105F00D, PID: 001BB101 TSG
T2098 000:229.630   CPU_ReadMem(4 bytes @ 0xE000ED78)
T2098 000:229.847   Cache: Separate I- and D-cache.
T2098 000:229.858   CPU_WriteMem(4 bytes @ 0xE000ED84)
T2098 000:230.195   CPU_ReadMem(4 bytes @ 0xE000ED80)
T2098 000:230.429   I-Cache L1: 32 KB, 512 Sets, 32 Bytes/Line, 2-Way
T2098 000:230.445   CPU_WriteMem(4 bytes @ 0xE000ED84)
T2098 000:230.686   CPU_ReadMem(4 bytes @ 0xE000ED80)
T2098 000:230.915   D-Cache L1: 32 KB, 256 Sets, 32 Bytes/Line, 4-Way
T2098 000:231.145 - 116.755ms returns 0x0BD11477
T2098 000:231.166 JLINK_GetDLLVersion()
T2098 000:231.173 - 0.010ms returns 68606
T2098 000:231.182 JLINK_CORE_GetFound()
T2098 000:231.189 - 0.010ms returns 0xE0100FF
T2098 000:231.261 JLINK_GetDebugInfo(0x100 = JLINKARM_ROM_TABLE_ADDR_INDEX)
T2098 000:231.274   Value=0xE00FD000
T2098 000:231.283 - 0.025ms returns 0
T2098 000:231.302 JLINK_GetDebugInfo(0x100 = JLINKARM_ROM_TABLE_ADDR_INDEX)
T2098 000:231.310   Value=0xE00FD000
T2098 000:231.319 - 0.020ms returns 0
T2098 000:231.328 JLINK_GetDebugInfo(0x101 = JLINKARM_DEBUG_INFO_ETM_ADDR_INDEX)
T2098 000:231.335   Value=0xE0041000
T2098 000:231.344 - 0.019ms returns 0
T2098 000:231.357 JLINK_ReadMemEx(0xE0041FD0, 0x20 Bytes, Flags = 0x02000004)
T2098 000:231.378   CPU_ReadMem(32 bytes @ 0xE0041FD0)
T2098 000:231.700   Data:  04 00 00 00 00 00 00 00 00 00 00 00 00 00 00 00 ...
T2098 000:231.713 - 0.359ms returns 32 (0x20)
T2098 000:231.724 JLINK_GetDebugInfo(0x102 = JLINKARM_DEBUG_INFO_MTB_ADDR_INDEX)
T2098 000:231.732   Value=0x00000000
T2098 000:231.741 - 0.020ms returns 0
T2098 000:231.750 JLINK_GetDebugInfo(0x103 = JLINKARM_DEBUG_INFO_TPIU_ADDR_INDEX)
T2098 000:231.757   Value=0xE0040000
T2098 000:231.766 - 0.019ms returns 0
T2098 000:231.775 JLINK_GetDebugInfo(0x104 = JLINKARM_DEBUG_INFO_ITM_ADDR_INDEX)
T2098 000:231.782   Value=0xE0000000
T2098 000:231.791 - 0.019ms returns 0
T2098 000:231.800 JLINK_GetDebugInfo(0x105 = JLINKARM_DEBUG_INFO_DWT_ADDR_INDEX)
T2098 000:231.807   Value=0xE0001000
T2098 000:231.816 - 0.019ms returns 0
T2098 000:231.825 JLINK_GetDebugInfo(0x106 = JLINKARM_DEBUG_INFO_FPB_ADDR_INDEX)
T2098 000:231.832   Value=0xE0002000
T2098 000:231.841 - 0.019ms returns 0
T2098 000:231.855 JLINK_GetDebugInfo(0x107 = JLINKARM_DEBUG_INFO_NVIC_ADDR_INDEX)
T2098 000:231.864   Value=0xE000E000
T2098 000:231.873 - 0.021ms returns 0
T2098 000:231.882 JLINK_GetDebugInfo(0x10C = JLINKARM_DEBUG_INFO_DBG_ADDR_INDEX)
T2098 000:231.889   Value=0xE000EDF0
T2098 000:231.898 - 0.019ms returns 0
T2098 000:231.907 JLINK_GetDebugInfo(0x01 = Unknown)
T2098 000:231.914   Value=0x00000001
T2098 000:231.923 - 0.019ms returns 0
T2098 000:231.932 JLINK_ReadMemU32(0xE000ED00, 0x1 Items)
T2098 000:231.943   CPU_ReadMem(4 bytes @ 0xE000ED00)
T2098 000:232.124   Data:  71 C2 1F 41
T2098 000:232.141   Debug reg: CPUID
T2098 000:232.150 - 0.221ms returns 1 (0x1)
T2098 000:232.162 JLINK_GetDebugInfo(0x10F = JLINKARM_DEBUG_INFO_HAS_CORTEX_M_SECURITY_EXT_INDEX)
T2098 000:232.170   Value=0x00000000
T2098 000:232.180 - 0.021ms returns 0
T2098 000:232.189 JLINK_HasError()
T2098 000:232.198 JLINK_SetResetType(JLINKARM_CM3_RESET_TYPE_CORE)
T2098 000:232.205 - 0.010ms returns JLINKARM_CM3_RESET_TYPE_NORMAL
T2098 000:232.214 JLINK_Reset()
T2098 000:232.236   CPU is running
T2098 000:232.247   CPU_WriteMem(4 bytes @ 0xE000EDF0)
T2098 000:232.517   CPU is running
T2098 000:232.533   CPU_WriteMem(4 bytes @ 0xE000EDFC)
T2098 000:232.785   Reset: Halt core after reset via DEMCR.VC_CORERESET.
T2098 000:232.963   Reset: Reset device via AIRCR.VECTRESET.
T2098 000:232.978   CPU is running
T2098 000:232.989   CPU_WriteMem(4 bytes @ 0xE000ED0C)
T2098 000:233.229   CPU_ReadMem(4 bytes @ 0xE000EDF0)
T2098 000:233.450   CPU_ReadMem(4 bytes @ 0xE000EDF0)
T2098 000:233.661   CPU is running
T2098 000:233.675   CPU_WriteMem(4 bytes @ 0xE000EDF0)
T2098 000:233.927   CPU is running
T2098 000:233.942   CPU_WriteMem(4 bytes @ 0xE000EDFC)
T2098 000:239.284   CPU_ReadMem(4 bytes @ 0xE000EDF0)
T2098 000:241.315   CPU_WriteMem(4 bytes @ 0xE0002000)
T2098 000:241.630   CPU_ReadMem(4 bytes @ 0xE000EDFC)
T2098 000:241.938   CPU_ReadMem(4 bytes @ 0xE0001000)
T2098 000:242.202 - 9.997ms
T2098 000:242.231 JLINK_HasError()
T2098 000:242.242 JLINK_ReadReg(R15 (PC))
T2098 000:242.257 - 0.018ms returns 0x00201414
T2098 000:242.266 JLINK_ReadReg(XPSR)
T2098 000:242.274 - 0.011ms returns 0x01000000
T2098 000:242.283 JLINK_Halt()
T2098 000:242.290 - 0.010ms returns 0x00
T2098 000:242.299 JLINK_ReadMemU32(0xE000EDF0, 0x1 Items)
T2098 000:242.311   CPU_ReadMem(4 bytes @ 0xE000EDF0)
T2098 000:242.648   Data:  03 00 03 00
T2098 000:242.665   Debug reg: DHCSR
T2098 000:242.674 - 0.378ms returns 1 (0x1)
T2098 000:242.691 JLINK_WriteU32_64(0xE000EDF0, 0xA05F0003)
T2098 000:242.700   Debug reg: DHCSR
T2098 000:242.726   CPU_WriteMem(4 bytes @ 0xE000EDF0)
T2098 000:243.022 - 0.340ms returns 0 (0x00000000)
T2098 000:243.041 JLINK_WriteU32_64(0xE000EDFC, 0x01000000)
T2098 000:243.049   Debug reg: DEMCR
T2098 000:243.067   CPU_WriteMem(4 bytes @ 0xE000EDFC)
T2098 000:243.344 - 0.315ms returns 0 (0x00000000)
T2098 000:243.401 JLINK_GetHWStatus(...)
T2098 000:243.636 - 0.247ms returns 0
T2098 000:243.688 JLINK_GetNumBPUnits(Type = 0xFFFFFF00)
T2098 000:243.698 - 0.014ms returns 0x08
T2098 000:243.708 JLINK_GetNumBPUnits(Type = 0xF0)
T2098 000:243.716 - 0.011ms returns 0x2000
T2098 000:243.725 JLINK_GetNumWPUnits()
T2098 000:243.734 - 0.012ms returns 4
T2098 000:243.760 JLINK_GetSpeed()
T2098 000:243.771 - 0.015ms returns 12000
T2098 000:243.792 JLINK_ReadMemU32(0xE000E004, 0x1 Items)
T2098 000:243.812   CPU_ReadMem(4 bytes @ 0xE000E004)
T2098 000:244.094   Data:  04 00 00 00
T2098 000:244.116 - 0.328ms returns 1 (0x1)
T2098 000:244.130 JLINK_ReadMemU32(0xE000E004, 0x1 Items)
T2098 000:244.145   CPU_ReadMem(4 bytes @ 0xE000E004)
T2098 000:244.422   Data:  04 00 00 00
T2098 000:244.438 - 0.311ms returns 1 (0x1)
T2098 000:244.450 JLINK_WriteMemEx(0xE0001000, 0x0000001C Bytes, Flags = 0x02000004)
T2098 000:244.458   Data:  01 00 00 00 00 00 00 00 00 00 00 00 00 00 00 00 ...
T2098 000:244.868   CPU_WriteMem(28 bytes @ 0xE0001000)
T2098 000:245.121 - 0.678ms returns 0x1C
T2098 000:245.147 JLINK_HasError()
T2098 000:245.164 JLINK_ReadReg(R15 (PC))
T2098 000:245.175 - 0.014ms returns 0x00201414
T2098 000:245.185 JLINK_ReadReg(XPSR)
T2098 000:245.192 - 0.011ms returns 0x01000000
T2098 000:263.898 JLINK_ReadMemEx(0xE0001004, 0x4 Bytes, Flags = 0x02000000)
T2098 000:263.933   Data:  00 00 00 00
T2098 000:263.944   Debug reg: DWT_CYCCNT
T2098 000:263.954 - 0.059ms returns 4 (0x4)
T2098 000:380.797 JLINK_HasError()
T2098 000:380.824 JLINK_SetResetType(JLINKARM_CM3_RESET_TYPE_CORE)
T2098 000:380.831 - 0.010ms returns JLINKARM_CM3_RESET_TYPE_CORE
T2098 000:380.841 JLINK_Reset()
T2098 000:380.862   CPU_WriteMem(4 bytes @ 0xE000EDF0)
T2098 000:381.124   CPU_WriteMem(4 bytes @ 0xE000EDFC)
T2098 000:381.449   Reset: Halt core after reset via DEMCR.VC_CORERESET.
T2098 000:381.683   Reset: Reset device via AIRCR.VECTRESET.
T2098 000:381.699   CPU_WriteMem(4 bytes @ 0xE000ED0C)
T2098 000:381.918   CPU_ReadMem(4 bytes @ 0xE000EDF0)
T2098 000:382.125   CPU_ReadMem(4 bytes @ 0xE000EDF0)
T2098 000:382.362   CPU_WriteMem(4 bytes @ 0xE000EDF0)
T2098 000:382.630   CPU_WriteMem(4 bytes @ 0xE000EDFC)
T2098 000:388.223   CPU_ReadMem(4 bytes @ 0xE000EDF0)
T2098 000:389.920   CPU_WriteMem(4 bytes @ 0xE0002000)
T2098 000:390.191   CPU_ReadMem(4 bytes @ 0xE000EDFC)
T2098 000:390.492   CPU_ReadMem(4 bytes @ 0xE0001000)
T2098 000:390.797 - 9.964ms
T2098 000:390.962 JLINK_HasError()
T2098 000:390.973 JLINK_ReadReg(R15 (PC))
T2098 000:390.984 - 0.014ms returns 0x00201414
T2098 000:390.994 JLINK_ReadReg(XPSR)
T2098 000:391.001 - 0.011ms returns 0x01000000
T2098 000:391.101 JLINK_ReadMemEx(0x00201414, 0x3C Bytes, Flags = 0x02000000)
T2098 000:391.116   CPU_ReadMem(60 bytes @ 0x00201414)
T2098 000:391.600   Data:  72 B6 0D 48 80 47 0D 48 0D 49 01 60 0D 48 80 47 ...
T2098 000:391.615 - 0.517ms returns 60 (0x3C)
T2098 000:391.627 JLINK_ReadMemEx(0x00201414, 0x2 Bytes, Flags = 0x02000000)
T2098 000:391.640   CPU_ReadMem(2 bytes @ 0x00201414)
T2098 000:391.923   Data:  72 B6
T2098 000:391.938 - 0.314ms returns 2 (0x2)
T2098 000:392.019 JLINK_ReadMemEx(0x00201416, 0x2 Bytes, Flags = 0x02000000)
T2098 000:392.032   CPU_ReadMem(2 bytes @ 0x00201416)
T2098 000:392.307   Data:  0D 48
T2098 000:392.322 - 0.307ms returns 2 (0x2)
T2098 000:392.592 JLINK_ReadMemEx(0x00201416, 0x2 Bytes, Flags = 0x02000000)
T2098 000:392.606   CPU_ReadMem(2 bytes @ 0x00201416)
T2098 000:392.892   Data:  0D 48
T2098 000:392.907 - 0.318ms returns 2 (0x2)
T2098 000:392.919 JLINK_ReadMemEx(0x00201418, 0x3C Bytes, Flags = 0x02000000)
T2098 000:392.932   CPU_ReadMem(60 bytes @ 0x00201418)
T2098 000:393.346   Data:  80 47 0D 48 0D 49 01 60 0D 48 80 47 0D 48 01 68 ...
T2098 000:393.362 - 0.446ms returns 60 (0x3C)
T2098 000:393.374 JLINK_ReadMemEx(0x00201418, 0x2 Bytes, Flags = 0x02000000)
T2098 000:393.387   CPU_ReadMem(2 bytes @ 0x00201418)
T2098 000:393.696   Data:  80 47
T2098 000:393.712 - 0.341ms returns 2 (0x2)
T2098 000:393.741 JLINK_ReadMemEx(0x00201418, 0x3C Bytes, Flags = 0x02000000)
T2098 000:393.755   CPU_ReadMem(60 bytes @ 0x00201418)
T2098 000:394.223   Data:  80 47 0D 48 0D 49 01 60 0D 48 80 47 0D 48 01 68 ...
T2098 000:394.239 - 0.501ms returns 60 (0x3C)
T2098 000:394.251 JLINK_ReadMemEx(0x00201418, 0x2 Bytes, Flags = 0x02000000)
T2098 000:394.264   CPU_ReadMem(2 bytes @ 0x00201418)
T2098 000:394.536   Data:  80 47
T2098 000:394.551 - 0.304ms returns 2 (0x2)
T2098 000:394.564 JLINK_ReadMemEx(0x0020141A, 0x2 Bytes, Flags = 0x02000000)
T2098 000:394.577   CPU_ReadMem(2 bytes @ 0x0020141A)
T2098 000:394.855   Data:  0D 48
T2098 000:394.869 - 0.308ms returns 2 (0x2)
T2098 000:394.901 JLINK_ReadMemEx(0x0020141A, 0x2 Bytes, Flags = 0x02000000)
T2098 000:394.914   CPU_ReadMem(2 bytes @ 0x0020141A)
T2098 000:395.145   Data:  0D 48
T2098 000:395.159 - 0.261ms returns 2 (0x2)
T2098 000:395.171 JLINK_ReadMemEx(0x0020141C, 0x3C Bytes, Flags = 0x02000000)
T2098 000:395.182   CPU_ReadMem(60 bytes @ 0x0020141C)
T2098 000:395.645   Data:  0D 49 01 60 0D 48 80 47 0D 48 01 68 41 F0 10 01 ...
T2098 000:395.661 - 0.544ms returns 60 (0x3C)
T2098 000:395.728 JLINK_ReadMemEx(0x0020141C, 0x2 Bytes, Flags = 0x02000000)
T2098 000:395.741   CPU_ReadMem(2 bytes @ 0x0020141C)
T2098 000:395.996   Data:  0D 49
T2098 000:396.010 - 0.286ms returns 2 (0x2)
T2098 000:396.037 JLINK_ReadMemEx(0x0020141C, 0x3C Bytes, Flags = 0x02000000)
T2098 000:396.050   CPU_ReadMem(60 bytes @ 0x0020141C)
T2098 000:396.527   Data:  0D 49 01 60 0D 48 80 47 0D 48 01 68 41 F0 10 01 ...
T2098 000:396.541 - 0.507ms returns 60 (0x3C)
T2098 000:396.552 JLINK_ReadMemEx(0x0020141C, 0x2 Bytes, Flags = 0x02000000)
T2098 000:396.563   CPU_ReadMem(2 bytes @ 0x0020141C)
T2098 000:396.877   Data:  0D 49
T2098 000:396.891 - 0.342ms returns 2 (0x2)
T2098 000:396.902 JLINK_ReadMemEx(0x0020141E, 0x2 Bytes, Flags = 0x02000000)
T2098 000:396.913   CPU_ReadMem(2 bytes @ 0x0020141E)
T2098 000:397.145   Data:  01 60
T2098 000:397.159 - 0.259ms returns 2 (0x2)
T2098 000:397.185 JLINK_ReadMemEx(0x0020141E, 0x2 Bytes, Flags = 0x02000000)
T2098 000:397.197   CPU_ReadMem(2 bytes @ 0x0020141E)
T2098 000:397.461   Data:  01 60
T2098 000:397.474 - 0.293ms returns 2 (0x2)
T2098 000:397.486 JLINK_ReadMemEx(0x00201420, 0x3C Bytes, Flags = 0x02000000)
T2098 000:397.497   CPU_ReadMem(60 bytes @ 0x00201420)
T2098 000:397.936   Data:  0D 48 80 47 0D 48 01 68 41 F0 10 01 01 60 62 B6 ...
T2098 000:397.949 - 0.467ms returns 60 (0x3C)
T2098 000:397.960 JLINK_ReadMemEx(0x00201420, 0x2 Bytes, Flags = 0x02000000)
T2098 000:397.971   CPU_ReadMem(2 bytes @ 0x00201420)
T2098 000:398.267   Data:  0D 48
T2098 000:398.281 - 0.324ms returns 2 (0x2)
T2098 000:398.309 JLINK_ReadMemEx(0x00201420, 0x3C Bytes, Flags = 0x02000000)
T2098 000:398.322   CPU_ReadMem(60 bytes @ 0x00201420)
T2098 000:398.755   Data:  0D 48 80 47 0D 48 01 68 41 F0 10 01 01 60 62 B6 ...
T2098 000:398.768 - 0.462ms returns 60 (0x3C)
T2098 000:398.779 JLINK_ReadMemEx(0x00201420, 0x2 Bytes, Flags = 0x02000000)
T2098 000:398.790   CPU_ReadMem(2 bytes @ 0x00201420)
T2098 000:399.052   Data:  0D 48
T2098 000:399.066 - 0.290ms returns 2 (0x2)
T2098 000:399.077 JLINK_ReadMemEx(0x00201422, 0x2 Bytes, Flags = 0x02000000)
T2098 000:399.088   CPU_ReadMem(2 bytes @ 0x00201422)
T2098 000:399.337   Data:  80 47
T2098 000:399.351 - 0.277ms returns 2 (0x2)
T2098 003:106.769 JLINK_HasError()
T2098 003:106.793 JLINK_ReadReg(R0)
T2098 003:107.037 - 0.252ms returns 0x00000000
T2098 003:107.053 JLINK_ReadReg(R1)
T2098 003:107.061 - 0.011ms returns 0x00000000
T2098 003:107.070 JLINK_ReadReg(R2)
T2098 003:107.078 - 0.010ms returns 0x00000000
T2098 003:107.086 JLINK_ReadReg(R3)
T2098 003:107.094 - 0.010ms returns 0x00000000
T2098 003:107.102 JLINK_ReadReg(R4)
T2098 003:107.109 - 0.010ms returns 0x00000000
T2098 003:107.118 JLINK_ReadReg(R5)
T2098 003:107.125 - 0.010ms returns 0x00000000
T2098 003:107.134 JLINK_ReadReg(R6)
T2098 003:107.141 - 0.010ms returns 0x00000000
T2098 003:107.150 JLINK_ReadReg(R7)
T2098 003:107.157 - 0.010ms returns 0x00000000
T2098 003:107.166 JLINK_ReadReg(R8)
T2098 003:107.180 - 0.018ms returns 0x00000000
T2098 003:107.189 JLINK_ReadReg(R9)
T2098 003:107.196 - 0.010ms returns 0x00000000
T2098 003:107.205 JLINK_ReadReg(R10)
T2098 003:107.212 - 0.010ms returns 0x00000000
T2098 003:107.221 JLINK_ReadReg(R11)
T2098 003:107.228 - 0.010ms returns 0x00000000
T2098 003:107.236 JLINK_ReadReg(R12)
T2098 003:107.243 - 0.010ms returns 0x00000000
T2098 003:107.252 JLINK_ReadReg(R13 (SP))
T2098 003:107.260 - 0.010ms returns 0x20201000
T2098 003:107.268 JLINK_ReadReg(R14)
T2098 003:107.275 - 0.010ms returns 0xFFFFFFFF
T2098 003:107.284 JLINK_ReadReg(R15 (PC))
T2098 003:107.291 - 0.010ms returns 0x00201414
T2098 003:107.300 JLINK_ReadReg(XPSR)
T2098 003:107.307 - 0.010ms returns 0x01000000
T2098 003:107.316 JLINK_ReadReg(MSP)
T2098 003:107.323 - 0.010ms returns 0x20201000
T2098 003:107.332 JLINK_ReadReg(PSP)
T2098 003:107.339 - 0.010ms returns 0x00000000
T2098 003:107.347 JLINK_ReadReg(CFBP)
T2098 003:107.354 - 0.010ms returns 0x00000000
T2098 003:107.363 JLINK_ReadReg(FPSCR)
T2098 003:109.409 - 2.054ms returns 0x00000000
T2098 003:109.425 JLINK_ReadReg(FPS0)
T2098 003:109.434 - 0.012ms returns 0x00000000
T2098 003:109.443 JLINK_ReadReg(FPS1)
T2098 003:109.450 - 0.010ms returns 0x00000000
T2098 003:109.459 JLINK_ReadReg(FPS2)
T2098 003:109.466 - 0.010ms returns 0x00000000
T2098 003:109.475 JLINK_ReadReg(FPS3)
T2098 003:109.482 - 0.010ms returns 0x00000000
T2098 003:109.491 JLINK_ReadReg(FPS4)
T2098 003:109.498 - 0.010ms returns 0x00000000
T2098 003:109.507 JLINK_ReadReg(FPS5)
T2098 003:109.514 - 0.010ms returns 0x00000000
T2098 003:109.522 JLINK_ReadReg(FPS6)
T2098 003:109.529 - 0.010ms returns 0x00000000
T2098 003:109.538 JLINK_ReadReg(FPS7)
T2098 003:109.545 - 0.010ms returns 0x00000000
T2098 003:109.554 JLINK_ReadReg(FPS8)
T2098 003:109.561 - 0.010ms returns 0x00000000
T2098 003:109.570 JLINK_ReadReg(FPS9)
T2098 003:109.577 - 0.010ms returns 0x00000000
T2098 003:109.586 JLINK_ReadReg(FPS10)
T2098 003:109.593 - 0.010ms returns 0x00000000
T2098 003:109.601 JLINK_ReadReg(FPS11)
T2098 003:109.608 - 0.010ms returns 0x00000000
T2098 003:109.617 JLINK_ReadReg(FPS12)
T2098 003:109.624 - 0.010ms returns 0x00000000
T2098 003:109.633 JLINK_ReadReg(FPS13)
T2098 003:109.640 - 0.010ms returns 0x00000000
T2098 003:109.649 JLINK_ReadReg(FPS14)
T2098 003:109.656 - 0.010ms returns 0x00000000
T2098 003:109.664 JLINK_ReadReg(FPS15)
T2098 003:109.672 - 0.010ms returns 0xFFFFFFFF
T2098 003:109.680 JLINK_ReadReg(FPS16)
T2098 003:109.687 - 0.010ms returns 0x00000000
T2098 003:109.696 JLINK_ReadReg(FPS17)
T2098 003:109.703 - 0.010ms returns 0x00000000
T2098 003:109.712 JLINK_ReadReg(FPS18)
T2098 003:109.719 - 0.010ms returns 0x00000000
T2098 003:109.727 JLINK_ReadReg(FPS19)
T2098 003:109.735 - 0.010ms returns 0x00000000
T2098 003:109.743 JLINK_ReadReg(FPS20)
T2098 003:109.750 - 0.010ms returns 0x00000000
T2098 003:109.759 JLINK_ReadReg(FPS21)
T2098 003:109.766 - 0.010ms returns 0x00000000
T2098 003:109.775 JLINK_ReadReg(FPS22)
T2098 003:109.782 - 0.010ms returns 0x00000000
T2098 003:109.790 JLINK_ReadReg(FPS23)
T2098 003:109.797 - 0.010ms returns 0x00000000
T2098 003:109.806 JLINK_ReadReg(FPS24)
T2098 003:109.813 - 0.010ms returns 0x00000000
T2098 003:109.822 JLINK_ReadReg(FPS25)
T2098 003:109.829 - 0.010ms returns 0x00000000
T2098 003:109.837 JLINK_ReadReg(FPS26)
T2098 003:109.844 - 0.010ms returns 0x00000000
T2098 003:109.853 JLINK_ReadReg(FPS27)
T2098 003:109.860 - 0.010ms returns 0x00000000
T2098 003:109.869 JLINK_ReadReg(FPS28)
T2098 003:109.876 - 0.010ms returns 0x00000000
T2098 003:109.885 JLINK_ReadReg(FPS29)
T2098 003:109.892 - 0.010ms returns 0x00000000
T2098 003:109.900 JLINK_ReadReg(FPS30)
T2098 003:109.907 - 0.010ms returns 0x00000000
T2098 003:109.916 JLINK_ReadReg(FPS31)
T2098 003:109.923 - 0.010ms returns 0xFFFFFFFF
T2098 003:111.039 JLINK_ReadMemEx(0x400AC044, 0x4 Bytes, Flags = 0x02000000)
T2098 003:111.058   CPU_ReadMem(4 bytes @ 0x400AC044)
T2098 003:111.317   Data:  55 FA AF 55
T2098 003:111.333 - 0.297ms returns 4 (0x4)
T2098 003:111.426 JLINK_WriteMemEx(0x400AC044, 0x00000004 Bytes, Flags = 0x02000000)
T2098 003:111.434   Data:  55 FA AF 55
T2098 003:111.451   CPU_WriteMem(4 bytes @ 0x400AC044)
T2098 003:111.725 - 0.306ms returns 0x4
T2098 003:111.742 JLINK_ReadMemEx(0x400AC040, 0x4 Bytes, Flags = 0x02000000)
T2098 003:111.753   CPU_ReadMem(4 bytes @ 0x400AC040)
T2098 003:112.016   Data:  07 00 20 00
T2098 003:112.030 - 0.291ms returns 4 (0x4)
T2098 003:112.045 JLINK_WriteMemEx(0x400AC040, 0x00000004 Bytes, Flags = 0x02000000)
T2098 003:112.053   Data:  07 00 20 00
T2098 003:112.067   CPU_WriteMem(4 bytes @ 0x400AC040)
T2098 003:112.361 - 0.323ms returns 0x4
T2098 003:240.213 JLINK_ReadMemEx(0x401F4490, 0x4 Bytes, Flags = 0x02000000)
T2098 003:240.244   CPU_ReadMem(4 bytes @ 0x401F4490)
T2098 003:240.592   Data:  00 A4 00 00
T2098 003:240.608 - 0.398ms returns 4 (0x4)
T2098 003:240.705 JLINK_ReadMemEx(0x40080004, 0x4 Bytes, Flags = 0x02000000)
T2098 003:240.719   CPU_ReadMem(4 bytes @ 0x40080004)
T2098 003:241.030   Data:  9C A2 1B 14
T2098 003:241.051 - 0.349ms returns 4 (0x4)
T2098 003:241.136 JLINK_WriteMemEx(0x40080004, 0x00000004 Bytes, Flags = 0x02000000)
T2098 003:241.144   Data:  9C A2 1B 14
T2098 003:241.161   CPU_WriteMem(4 bytes @ 0x40080004)
T2098 003:241.456 - 0.328ms returns 0x4
T2098 003:241.475 JLINK_ReadMemEx(0x401F4480, 0x4 Bytes, Flags = 0x02000000)
T2098 003:241.488   CPU_ReadMem(4 bytes @ 0x401F4480)
T2098 003:241.804   Data:  00 00 00 00
T2098 003:241.819 - 0.347ms returns 4 (0x4)
T2098 003:268.588 JLINK_ReadMemEx(0x60002000, 0x4 Bytes, Flags = 0x02000000)
T2098 003:268.622   CPU_ReadMem(64 bytes @ 0x60002000)
T2098 003:269.131    -- Updating C cache (64 bytes @ 0x60002000)
T2098 003:269.148    -- Read from C cache (4 bytes @ 0x60002000)
T2098 003:269.159   Data:  00 00 02 20
T2098 003:269.169 - 0.584ms returns 4 (0x4)
T2098 003:269.264 JLINK_HasError()
T2098 003:269.275 JLINK_WriteReg(R13 (SP), 0x20020000)
T2098 003:269.287 - 0.015ms returns 0
T2098 003:269.298 JLINK_HasError()
T2098 003:269.306 JLINK_ReadReg(R0)
T2098 003:269.314 - 0.011ms returns 0x00000000
T2098 003:269.323 JLINK_ReadReg(R1)
T2098 003:269.331 - 0.010ms returns 0x00000000
T2098 003:269.339 JLINK_ReadReg(R2)
T2098 003:269.347 - 0.010ms returns 0x00000000
T2098 003:269.355 JLINK_ReadReg(R3)
T2098 003:269.362 - 0.010ms returns 0x00000000
T2098 003:269.371 JLINK_ReadReg(R4)
T2098 003:269.378 - 0.010ms returns 0x00000000
T2098 003:269.387 JLINK_ReadReg(R5)
T2098 003:269.394 - 0.010ms returns 0x00000000
T2098 003:269.403 JLINK_ReadReg(R6)
T2098 003:269.410 - 0.010ms returns 0x00000000
T2098 003:269.418 JLINK_ReadReg(R7)
T2098 003:269.425 - 0.010ms returns 0x00000000
T2098 003:269.434 JLINK_ReadReg(R8)
T2098 003:269.441 - 0.010ms returns 0x00000000
T2098 003:269.450 JLINK_ReadReg(R9)
T2098 003:269.457 - 0.010ms returns 0x00000000
T2098 003:269.466 JLINK_ReadReg(R10)
T2098 003:269.473 - 0.010ms returns 0x00000000
T2098 003:269.482 JLINK_ReadReg(R11)
T2098 003:269.489 - 0.010ms returns 0x00000000
T2098 003:269.497 JLINK_ReadReg(R12)
T2098 003:269.504 - 0.010ms returns 0x00000000
T2098 003:269.513 JLINK_ReadReg(R13 (SP))
T2098 003:269.520 - 0.010ms returns 0x20020000
T2098 003:269.529 JLINK_ReadReg(R14)
T2098 003:269.536 - 0.010ms returns 0xFFFFFFFF
T2098 003:269.545 JLINK_ReadReg(R15 (PC))
T2098 003:269.552 - 0.010ms returns 0x00201414
T2098 003:269.561 JLINK_ReadReg(XPSR)
T2098 003:269.568 - 0.010ms returns 0x01000000
T2098 003:269.577 JLINK_ReadReg(MSP)
T2098 003:269.584 - 0.010ms returns 0x20020000
T2098 003:269.592 JLINK_ReadReg(PSP)
T2098 003:269.600 - 0.010ms returns 0x00000000
T2098 003:269.608 JLINK_ReadReg(CFBP)
T2098 003:269.615 - 0.010ms returns 0x00000000
T2098 003:269.624 JLINK_ReadReg(FPSCR)
T2098 003:269.631 - 0.010ms returns 0x00000000
T2098 003:269.640 JLINK_ReadReg(FPS0)
T2098 003:269.647 - 0.010ms returns 0x00000000
T2098 003:269.656 JLINK_ReadReg(FPS1)
T2098 003:269.663 - 0.010ms returns 0x00000000
T2098 003:269.672 JLINK_ReadReg(FPS2)
T2098 003:269.679 - 0.010ms returns 0x00000000
T2098 003:269.687 JLINK_ReadReg(FPS3)
T2098 003:269.694 - 0.010ms returns 0x00000000
T2098 003:269.703 JLINK_ReadReg(FPS4)
T2098 003:269.710 - 0.010ms returns 0x00000000
T2098 003:269.719 JLINK_ReadReg(FPS5)
T2098 003:269.726 - 0.010ms returns 0x00000000
T2098 003:269.735 JLINK_ReadReg(FPS6)
T2098 003:269.742 - 0.010ms returns 0x00000000
T2098 003:269.750 JLINK_ReadReg(FPS7)
T2098 003:269.757 - 0.010ms returns 0x00000000
T2098 003:269.766 JLINK_ReadReg(FPS8)
T2098 003:269.773 - 0.010ms returns 0x00000000
T2098 003:269.782 JLINK_ReadReg(FPS9)
T2098 003:269.789 - 0.010ms returns 0x00000000
T2098 003:269.798 JLINK_ReadReg(FPS10)
T2098 003:269.805 - 0.010ms returns 0x00000000
T2098 003:269.813 JLINK_ReadReg(FPS11)
T2098 003:269.820 - 0.010ms returns 0x00000000
T2098 003:269.839 JLINK_ReadReg(FPS12)
T2098 003:269.847 - 0.011ms returns 0x00000000
T2098 003:269.856 JLINK_ReadReg(FPS13)
T2098 003:269.863 - 0.010ms returns 0x00000000
T2098 003:269.871 JLINK_ReadReg(FPS14)
T2098 003:269.882 - 0.016ms returns 0x00000000
T2098 003:269.893 JLINK_ReadReg(FPS15)
T2098 003:269.901 - 0.010ms returns 0xFFFFFFFF
T2098 003:269.909 JLINK_ReadReg(FPS16)
T2098 003:269.917 - 0.010ms returns 0x00000000
T2098 003:269.925 JLINK_ReadReg(FPS17)
T2098 003:269.932 - 0.010ms returns 0x00000000
T2098 003:269.941 JLINK_ReadReg(FPS18)
T2098 003:269.948 - 0.010ms returns 0x00000000
T2098 003:269.957 JLINK_ReadReg(FPS19)
T2098 003:269.964 - 0.010ms returns 0x00000000
T2098 003:269.972 JLINK_ReadReg(FPS20)
T2098 003:269.979 - 0.010ms returns 0x00000000
T2098 003:269.988 JLINK_ReadReg(FPS21)
T2098 003:269.995 - 0.010ms returns 0x00000000
T2098 003:270.004 JLINK_ReadReg(FPS22)
T2098 003:270.011 - 0.010ms returns 0x00000000
T2098 003:270.020 JLINK_ReadReg(FPS23)
T2098 003:270.027 - 0.010ms returns 0x00000000
T2098 003:270.036 JLINK_ReadReg(FPS24)
T2098 003:270.043 - 0.010ms returns 0x00000000
T2098 003:270.051 JLINK_ReadReg(FPS25)
T2098 003:270.058 - 0.010ms returns 0x00000000
T2098 003:270.067 JLINK_ReadReg(FPS26)
T2098 003:270.074 - 0.010ms returns 0x00000000
T2098 003:270.083 JLINK_ReadReg(FPS27)
T2098 003:270.090 - 0.010ms returns 0x00000000
T2098 003:270.099 JLINK_ReadReg(FPS28)
T2098 003:270.106 - 0.010ms returns 0x00000000
T2098 003:270.114 JLINK_ReadReg(FPS29)
T2098 003:270.121 - 0.010ms returns 0x00000000
T2098 003:270.130 JLINK_ReadReg(FPS30)
T2098 003:270.137 - 0.010ms returns 0x00000000
T2098 003:270.146 JLINK_ReadReg(FPS31)
T2098 003:270.153 - 0.010ms returns 0xFFFFFFFF
T2098 003:270.162 JLINK_ReadMemEx(0x60002004, 0x4 Bytes, Flags = 0x02000000)
T2098 003:270.171    -- Read from C cache (4 bytes @ 0x60002004)
T2098 003:270.181   Data:  15 24 00 60
T2098 003:270.191 - 0.031ms returns 4 (0x4)
T2098 003:270.200 JLINK_HasError()
T2098 003:270.209 JLINK_WriteReg(R15 (PC), 0x60002414)
T2098 003:270.216 - 0.011ms returns 0
T2098 003:270.226 JLINK_HasError()
T2098 003:270.234 JLINK_ReadReg(R0)
T2098 003:270.242 - 0.010ms returns 0x00000000
T2098 003:270.250 JLINK_ReadReg(R1)
T2098 003:270.257 - 0.010ms returns 0x00000000
T2098 003:270.266 JLINK_ReadReg(R2)
T2098 003:270.273 - 0.010ms returns 0x00000000
T2098 003:270.282 JLINK_ReadReg(R3)
T2098 003:270.289 - 0.010ms returns 0x00000000
T2098 003:270.298 JLINK_ReadReg(R4)
T2098 003:270.305 - 0.010ms returns 0x00000000
T2098 003:270.313 JLINK_ReadReg(R5)
T2098 003:270.320 - 0.010ms returns 0x00000000
T2098 003:270.329 JLINK_ReadReg(R6)
T2098 003:270.336 - 0.010ms returns 0x00000000
T2098 003:270.345 JLINK_ReadReg(R7)
T2098 003:270.352 - 0.010ms returns 0x00000000
T2098 003:270.360 JLINK_ReadReg(R8)
T2098 003:270.367 - 0.010ms returns 0x00000000
T2098 003:270.376 JLINK_ReadReg(R9)
T2098 003:270.383 - 0.010ms returns 0x00000000
T2098 003:270.392 JLINK_ReadReg(R10)
T2098 003:270.399 - 0.010ms returns 0x00000000
T2098 003:270.407 JLINK_ReadReg(R11)
T2098 003:270.415 - 0.010ms returns 0x00000000
T2098 003:270.423 JLINK_ReadReg(R12)
T2098 003:270.430 - 0.010ms returns 0x00000000
T2098 003:270.439 JLINK_ReadReg(R13 (SP))
T2098 003:270.446 - 0.010ms returns 0x20020000
T2098 003:270.455 JLINK_ReadReg(R14)
T2098 003:270.462 - 0.010ms returns 0xFFFFFFFF
T2098 003:270.471 JLINK_ReadReg(R15 (PC))
T2098 003:270.478 - 0.010ms returns 0x60002414
T2098 003:270.486 JLINK_ReadReg(XPSR)
T2098 003:270.493 - 0.010ms returns 0x01000000
T2098 003:270.502 JLINK_ReadReg(MSP)
T2098 003:270.509 - 0.010ms returns 0x20020000
T2098 003:270.518 JLINK_ReadReg(PSP)
T2098 003:270.525 - 0.010ms returns 0x00000000
T2098 003:270.534 JLINK_ReadReg(CFBP)
T2098 003:270.540 - 0.010ms returns 0x00000000
T2098 003:270.549 JLINK_ReadReg(FPSCR)
T2098 003:270.556 - 0.010ms returns 0x00000000
T2098 003:270.565 JLINK_ReadReg(FPS0)
T2098 003:270.572 - 0.010ms returns 0x00000000
T2098 003:270.581 JLINK_ReadReg(FPS1)
T2098 003:270.588 - 0.010ms returns 0x00000000
T2098 003:270.596 JLINK_ReadReg(FPS2)
T2098 003:270.603 - 0.010ms returns 0x00000000
T2098 003:270.612 JLINK_ReadReg(FPS3)
T2098 003:270.619 - 0.010ms returns 0x00000000
T2098 003:270.680 JLINK_ReadReg(FPS4)
T2098 003:270.690 - 0.013ms returns 0x00000000
T2098 003:270.699 JLINK_ReadReg(FPS5)
T2098 003:270.706 - 0.010ms returns 0x00000000
T2098 003:270.715 JLINK_ReadReg(FPS6)
T2098 003:270.722 - 0.010ms returns 0x00000000
T2098 003:270.730 JLINK_ReadReg(FPS7)
T2098 003:270.737 - 0.010ms returns 0x00000000
T2098 003:270.746 JLINK_ReadReg(FPS8)
T2098 003:270.753 - 0.010ms returns 0x00000000
T2098 003:270.762 JLINK_ReadReg(FPS9)
T2098 003:270.769 - 0.010ms returns 0x00000000
T2098 003:270.778 JLINK_ReadReg(FPS10)
T2098 003:270.785 - 0.010ms returns 0x00000000
T2098 003:270.793 JLINK_ReadReg(FPS11)
T2098 003:270.800 - 0.010ms returns 0x00000000
T2098 003:270.809 JLINK_ReadReg(FPS12)
T2098 003:270.816 - 0.010ms returns 0x00000000
T2098 003:270.827 JLINK_ReadReg(FPS13)
T2098 003:270.834 - 0.010ms returns 0x00000000
T2098 003:270.843 JLINK_ReadReg(FPS14)
T2098 003:270.850 - 0.010ms returns 0x00000000
T2098 003:270.858 JLINK_ReadReg(FPS15)
T2098 003:270.865 - 0.010ms returns 0xFFFFFFFF
T2098 003:270.874 JLINK_ReadReg(FPS16)
T2098 003:270.881 - 0.010ms returns 0x00000000
T2098 003:270.890 JLINK_ReadReg(FPS17)
T2098 003:270.897 - 0.010ms returns 0x00000000
T2098 003:270.905 JLINK_ReadReg(FPS18)
T2098 003:270.913 - 0.010ms returns 0x00000000
T2098 003:270.921 JLINK_ReadReg(FPS19)
T2098 003:270.928 - 0.010ms returns 0x00000000
T2098 003:270.937 JLINK_ReadReg(FPS20)
T2098 003:270.944 - 0.010ms returns 0x00000000
T2098 003:270.953 JLINK_ReadReg(FPS21)
T2098 003:270.960 - 0.010ms returns 0x00000000
T2098 003:270.968 JLINK_ReadReg(FPS22)
T2098 003:270.975 - 0.010ms returns 0x00000000
T2098 003:270.984 JLINK_ReadReg(FPS23)
T2098 003:270.991 - 0.010ms returns 0x00000000
T2098 003:271.000 JLINK_ReadReg(FPS24)
T2098 003:271.007 - 0.010ms returns 0x00000000
T2098 003:271.015 JLINK_ReadReg(FPS25)
T2098 003:271.022 - 0.010ms returns 0x00000000
T2098 003:271.031 JLINK_ReadReg(FPS26)
T2098 003:271.038 - 0.010ms returns 0x00000000
T2098 003:271.047 JLINK_ReadReg(FPS27)
T2098 003:271.054 - 0.010ms returns 0x00000000
T2098 003:271.063 JLINK_ReadReg(FPS28)
T2098 003:271.070 - 0.010ms returns 0x00000000
T2098 003:271.078 JLINK_ReadReg(FPS29)
T2098 003:271.085 - 0.010ms returns 0x00000000
T2098 003:271.094 JLINK_ReadReg(FPS30)
T2098 003:271.101 - 0.010ms returns 0x00000000
T2098 003:271.110 JLINK_ReadReg(FPS31)
T2098 003:271.117 - 0.010ms returns 0xFFFFFFFF
T2098 003:271.127 JLINK_WriteMemEx(0xE000ED08, 0x00000004 Bytes, Flags = 0x02000000)
T2098 003:271.134   Data:  00 20 00 60
T2098 003:271.149   CPU_WriteMem(4 bytes @ 0xE000ED08)
T2098 003:271.401 - 0.283ms returns 0x4
T2098 003:446.899 JLINK_ReadMemEx(0x200003E0, 0x4 Bytes, Flags = 0x02000000)
T2098 003:446.943   CPU_ReadMem(64 bytes @ 0x200003C0)
T2098 003:447.463    -- Updating C cache (64 bytes @ 0x200003C0)
T2098 003:447.482    -- Read from C cache (4 bytes @ 0x200003E0)
T2098 003:447.493   Data:  20 49 03 F0
T2098 003:447.503 - 0.607ms returns 4 (0x4)
T2098 003:447.656 JLINK_ReadMemEx(0x200003E0, 0x4 Bytes, Flags = 0x02000000)
T2098 003:447.669    -- Read from C cache (4 bytes @ 0x200003E0)
T2098 003:447.679   Data:  20 49 03 F0
T2098 003:447.689 - 0.036ms returns 4 (0x4)
T2098 003:447.721 JLINK_ReadMemEx(0x200003E0, 0x4 Bytes, Flags = 0x02000000)
T2098 003:447.731    -- Read from C cache (4 bytes @ 0x200003E0)
T2098 003:447.741   Data:  20 49 03 F0
T2098 003:447.751 - 0.033ms returns 4 (0x4)
T2098 003:459.741 JLINK_ReadMemEx(0x20001390, 0x4 Bytes, Flags = 0x02000000)
T2098 003:459.774   CPU_ReadMem(64 bytes @ 0x20001380)
T2098 003:460.206    -- Updating C cache (64 bytes @ 0x20001380)
T2098 003:460.224    -- Read from C cache (4 bytes @ 0x20001390)
T2098 003:460.235   Data:  10 70 09 A8
T2098 003:460.245 - 0.507ms returns 4 (0x4)
T2098 003:460.346 JLINK_ReadMemEx(0x20001390, 0x4 Bytes, Flags = 0x02000000)
T2098 003:460.359    -- Read from C cache (4 bytes @ 0x20001390)
T2098 003:460.369   Data:  10 70 09 A8
T2098 003:460.379 - 0.035ms returns 4 (0x4)
T2098 003:460.407 JLINK_ReadMemEx(0x20001390, 0x4 Bytes, Flags = 0x02000000)
T2098 003:460.423    -- Read from C cache (4 bytes @ 0x20001390)
T2098 003:460.433   Data:  10 70 09 A8
T2098 003:460.443 - 0.039ms returns 4 (0x4)
T2098 003:472.240 JLINK_ReadMemEx(0x200013A0, 0x4 Bytes, Flags = 0x02000000)
T2098 003:472.269    -- Read from C cache (4 bytes @ 0x200013A0)
T2098 003:472.280   Data:  03 9B 18 98
T2098 003:472.290 - 0.052ms returns 4 (0x4)
T2098 003:472.376 JLINK_ReadMemEx(0x200013A0, 0x4 Bytes, Flags = 0x02000000)
T2098 003:472.386    -- Read from C cache (4 bytes @ 0x200013A0)
T2098 003:472.396   Data:  03 9B 18 98
T2098 003:472.406 - 0.033ms returns 4 (0x4)
T2098 003:472.431 JLINK_ReadMemEx(0x200013A0, 0x4 Bytes, Flags = 0x02000000)
T2098 003:472.440    -- Read from C cache (4 bytes @ 0x200013A0)
T2098 003:472.450   Data:  03 9B 18 98
T2098 003:472.459 - 0.032ms returns 4 (0x4)
T2098 003:484.314 JLINK_ReadMemEx(0x20001398, 0x4 Bytes, Flags = 0x02000000)
T2098 003:484.343    -- Read from C cache (4 bytes @ 0x20001398)
T2098 003:484.354   Data:  08 90 2A 46
T2098 003:484.364 - 0.053ms returns 4 (0x4)
T2098 003:484.445 JLINK_ReadMemEx(0x20001398, 0x4 Bytes, Flags = 0x02000000)
T2098 003:484.455    -- Read from C cache (4 bytes @ 0x20001398)
T2098 003:484.465   Data:  08 90 2A 46
T2098 003:484.475 - 0.033ms returns 4 (0x4)
T2098 003:484.499 JLINK_ReadMemEx(0x20001398, 0x4 Bytes, Flags = 0x02000000)
T2098 003:484.509    -- Read from C cache (4 bytes @ 0x20001398)
T2098 003:484.518   Data:  08 90 2A 46
T2098 003:484.528 - 0.032ms returns 4 (0x4)
T2098 003:496.643 JLINK_ReadMemEx(0x20001394, 0x4 Bytes, Flags = 0x02000000)
T2098 003:496.666    -- Read from C cache (4 bytes @ 0x20001394)
T2098 003:496.677   Data:  07 90 10 20
T2098 003:496.687 - 0.046ms returns 4 (0x4)
T2098 003:496.750 JLINK_ReadMemEx(0x20001394, 0x4 Bytes, Flags = 0x02000000)
T2098 003:496.760    -- Read from C cache (4 bytes @ 0x20001394)
T2098 003:496.770   Data:  07 90 10 20
T2098 003:496.780 - 0.033ms returns 4 (0x4)
T2098 003:496.802 JLINK_ReadMemEx(0x20001394, 0x4 Bytes, Flags = 0x02000000)
T2098 003:496.811    -- Read from C cache (4 bytes @ 0x20001394)
T2098 003:496.822   Data:  07 90 10 20
T2098 003:496.831 - 0.032ms returns 4 (0x4)
T2098 003:523.974 JLINK_ReadMemEx(0x20001324, 0x4 Bytes, Flags = 0x02000000)
T2098 003:524.010   CPU_ReadMem(64 bytes @ 0x20001300)
T2098 003:524.454    -- Updating C cache (64 bytes @ 0x20001300)
T2098 003:524.469    -- Read from C cache (4 bytes @ 0x20001324)
T2098 003:524.480   Data:  8B 07 ED D4
T2098 003:524.490 - 0.519ms returns 4 (0x4)
T2098 003:524.585 JLINK_ReadMemEx(0x20001324, 0x4 Bytes, Flags = 0x02000000)
T2098 003:524.596    -- Read from C cache (4 bytes @ 0x20001324)
T2098 003:524.606   Data:  8B 07 ED D4
T2098 003:524.616 - 0.034ms returns 4 (0x4)
T2098 003:524.642 JLINK_ReadMemEx(0x20001324, 0x4 Bytes, Flags = 0x02000000)
T2098 003:524.651    -- Read from C cache (4 bytes @ 0x20001324)
T2098 003:524.661   Data:  8B 07 ED D4
T2098 003:524.671 - 0.032ms returns 4 (0x4)
T7C60 003:829.006 JLINK_ReadMemEx(0x60002414, 0x2 Bytes, Flags = 0x02000000)
T7C60 003:829.039   CPU_ReadMem(64 bytes @ 0x60002400)
T7C60 003:829.522    -- Updating C cache (64 bytes @ 0x60002400)
T7C60 003:829.540    -- Read from C cache (2 bytes @ 0x60002414)
T7C60 003:829.551   Data:  72 B6
T7C60 003:829.561 - 0.558ms returns 2 (0x2)
T7C60 003:829.573 JLINK_HasError()
T7C60 003:829.583 JLINK_SetBPEx(Addr = 0x60011858, Type = 0xFFFFFFF2)
T7C60 003:829.594 - 0.014ms returns 0x00000001
T7C60 003:829.604 JLINK_HasError()
T7C60 003:829.612 JLINK_SetBPEx(Addr = 0x6000FDB4, Type = 0xFFFFFFF2)
T7C60 003:829.620 - 0.011ms returns 0x00000002
T7C60 003:829.632 JLINK_HasError()
T7C60 003:829.641 JLINK_HasError()
T7C60 003:829.650 JLINK_Go()
T7C60 003:829.940   CPU_WriteMem(4 bytes @ 0xE0002000)
T7C60 003:830.301   CPU_WriteMem(4 bytes @ 0xE0002000)
T7C60 003:830.544   CPU_ReadMem(4 bytes @ 0xE0001000)
T7C60 003:830.767   CPU_WriteMem(4 bytes @ 0xE0002008)
T7C60 003:830.785   CPU_WriteMem(4 bytes @ 0xE000200C)
T7C60 003:830.802   CPU_WriteMem(4 bytes @ 0xE0002010)
T7C60 003:830.812   CPU_WriteMem(4 bytes @ 0xE0002014)
T7C60 003:830.822   CPU_WriteMem(4 bytes @ 0xE0002018)
T7C60 003:830.832   CPU_WriteMem(4 bytes @ 0xE000201C)
T7C60 003:830.842   CPU_WriteMem(4 bytes @ 0xE0002020)
T7C60 003:830.852   CPU_WriteMem(4 bytes @ 0xE0002024)
T7C60 003:831.879   CPU_WriteMem(4 bytes @ 0xE0001004)
T7C60 003:833.359 - 3.720ms
T7C60 003:934.258 JLINK_HasError()
T7C60 003:934.283 JLINK_IsHalted()
T7C60 003:935.667 - 1.392ms returns TRUE
T7C60 003:935.685 JLINK_HasError()
T7C60 003:935.694 JLINK_Halt()
T7C60 003:935.701 - 0.010ms returns 0x00
T7C60 003:935.710 JLINK_IsHalted()
T7C60 003:935.717 - 0.010ms returns TRUE
T7C60 003:935.726 JLINK_IsHalted()
T7C60 003:935.732 - 0.010ms returns TRUE
T7C60 003:935.741 JLINK_IsHalted()
T7C60 003:935.747 - 0.009ms returns TRUE
T7C60 003:935.757 JLINK_HasError()
T7C60 003:935.766 JLINK_ReadReg(R15 (PC))
T7C60 003:935.775 - 0.013ms returns 0x60011858
T7C60 003:935.784 JLINK_ReadReg(XPSR)
T7C60 003:935.792 - 0.011ms returns 0x61000000
T7C60 003:935.803 JLINK_HasError()
T7C60 003:935.812 JLINK_ClrBPEx(BPHandle = 0x00000001)
T7C60 003:935.820 - 0.011ms returns 0x00
T7C60 003:935.829 JLINK_HasError()
T7C60 003:935.838 JLINK_ClrBPEx(BPHandle = 0x00000002)
T7C60 003:935.845 - 0.010ms returns 0x00
T7C60 003:935.854 JLINK_HasError()
T7C60 003:935.862 JLINK_HasError()
T7C60 003:935.871 JLINK_ReadMemU32(0xE000ED30, 0x1 Items)
T7C60 003:935.883   CPU_ReadMem(4 bytes @ 0xE000ED30)
T7C60 003:936.151   Data:  02 00 00 00
T7C60 003:936.166 - 0.299ms returns 1 (0x1)
T7C60 003:936.178 JLINK_ReadMemU32(0xE0001028, 0x1 Items)
T7C60 003:936.191   CPU_ReadMem(4 bytes @ 0xE0001028)
T7C60 003:936.473   Data:  00 00 00 00
T7C60 003:936.489   Debug reg: DWT_FUNC[0]
T7C60 003:936.499 - 0.323ms returns 1 (0x1)
T7C60 003:936.510 JLINK_ReadMemU32(0xE0001038, 0x1 Items)
T7C60 003:936.522   CPU_ReadMem(4 bytes @ 0xE0001038)
T7C60 003:936.782   Data:  00 02 00 00
T7C60 003:936.796   Debug reg: DWT_FUNC[1]
T7C60 003:936.806 - 0.299ms returns 1 (0x1)
T7C60 003:936.817 JLINK_ReadMemU32(0xE0001048, 0x1 Items)
T7C60 003:936.828   CPU_ReadMem(4 bytes @ 0xE0001048)
T7C60 003:937.111   Data:  00 00 00 00
T7C60 003:937.127   Debug reg: DWT_FUNC[2]
T7C60 003:937.137 - 0.323ms returns 1 (0x1)
T7C60 003:937.149 JLINK_ReadMemU32(0xE0001058, 0x1 Items)
T7C60 003:937.161   CPU_ReadMem(4 bytes @ 0xE0001058)
T7C60 003:937.448   Data:  00 00 00 00
T7C60 003:937.464   Debug reg: DWT_FUNC[3]
T7C60 003:937.474 - 0.328ms returns 1 (0x1)
T7C60 003:937.953 JLINK_HasError()
T7C60 003:937.964 JLINK_ReadReg(R0)
T7C60 003:937.974 - 0.013ms returns 0x60011859
T7C60 003:937.984 JLINK_ReadReg(R1)
T7C60 003:937.991 - 0.010ms returns 0x20002E5C
T7C60 003:938.000 JLINK_ReadReg(R2)
T7C60 003:938.007 - 0.010ms returns 0x00000000
T7C60 003:938.016 JLINK_ReadReg(R3)
T7C60 003:938.023 - 0.010ms returns 0x60026659
T7C60 003:938.032 JLINK_ReadReg(R4)
T7C60 003:938.039 - 0.010ms returns 0x6002D808
T7C60 003:938.047 JLINK_ReadReg(R5)
T7C60 003:938.054 - 0.010ms returns 0x6002D808
T7C60 003:938.063 JLINK_ReadReg(R6)
T7C60 003:938.070 - 0.010ms returns 0x00000000
T7C60 003:938.079 JLINK_ReadReg(R7)
T7C60 003:938.086 - 0.010ms returns 0x00000000
T7C60 003:938.094 JLINK_ReadReg(R8)
T7C60 003:938.102 - 0.010ms returns 0x00000000
T7C60 003:938.110 JLINK_ReadReg(R9)
T7C60 003:938.117 - 0.010ms returns 0x00000000
T7C60 003:938.126 JLINK_ReadReg(R10)
T7C60 003:938.133 - 0.010ms returns 0x00000000
T7C60 003:938.142 JLINK_ReadReg(R11)
T7C60 003:938.149 - 0.010ms returns 0x00000000
T7C60 003:938.157 JLINK_ReadReg(R12)
T7C60 003:938.164 - 0.010ms returns 0x00000000
T7C60 003:938.173 JLINK_ReadReg(R13 (SP))
T7C60 003:938.181 - 0.010ms returns 0x20020000
T7C60 003:938.191 JLINK_ReadReg(R14)
T7C60 003:938.198 - 0.010ms returns 0x600029DD
T7C60 003:938.207 JLINK_ReadReg(R15 (PC))
T7C60 003:938.214 - 0.010ms returns 0x60011858
T7C60 003:938.223 JLINK_ReadReg(XPSR)
T7C60 003:938.230 - 0.015ms returns 0x61000000
T7C60 003:938.247 JLINK_ReadReg(MSP)
T7C60 003:938.254 - 0.011ms returns 0x20020000
T7C60 003:938.263 JLINK_ReadReg(PSP)
T7C60 003:938.270 - 0.010ms returns 0x00000000
T7C60 003:938.279 JLINK_ReadReg(CFBP)
T7C60 003:938.286 - 0.010ms returns 0x00000000
T7C60 003:938.295 JLINK_ReadReg(FPSCR)
T7C60 003:940.335 - 2.051ms returns 0x00000000
T7C60 003:940.355 JLINK_ReadReg(FPS0)
T7C60 003:940.366 - 0.014ms returns 0x00000000
T7C60 003:940.375 JLINK_ReadReg(FPS1)
T7C60 003:940.382 - 0.011ms returns 0x00000000
T7C60 003:940.391 JLINK_ReadReg(FPS2)
T7C60 003:940.398 - 0.010ms returns 0x00000000
T7C60 003:940.407 JLINK_ReadReg(FPS3)
T7C60 003:940.414 - 0.010ms returns 0x00000000
T7C60 003:940.423 JLINK_ReadReg(FPS4)
T7C60 003:940.430 - 0.010ms returns 0x00000000
T7C60 003:940.439 JLINK_ReadReg(FPS5)
T7C60 003:940.446 - 0.010ms returns 0x00000000
T7C60 003:940.455 JLINK_ReadReg(FPS6)
T7C60 003:940.462 - 0.010ms returns 0x00000000
T7C60 003:940.470 JLINK_ReadReg(FPS7)
T7C60 003:940.477 - 0.010ms returns 0x00000000
T7C60 003:940.486 JLINK_ReadReg(FPS8)
T7C60 003:940.493 - 0.010ms returns 0x00000000
T7C60 003:940.502 JLINK_ReadReg(FPS9)
T7C60 003:940.509 - 0.010ms returns 0x00000000
T7C60 003:940.518 JLINK_ReadReg(FPS10)
T7C60 003:940.525 - 0.010ms returns 0x00000000
T7C60 003:940.534 JLINK_ReadReg(FPS11)
T7C60 003:940.541 - 0.010ms returns 0x00000000
T7C60 003:940.549 JLINK_ReadReg(FPS12)
T7C60 003:940.556 - 0.010ms returns 0x00000000
T7C60 003:940.565 JLINK_ReadReg(FPS13)
T7C60 003:940.572 - 0.010ms returns 0x00000000
T7C60 003:940.580 JLINK_ReadReg(FPS14)
T7C60 003:940.587 - 0.010ms returns 0x00000000
T7C60 003:940.596 JLINK_ReadReg(FPS15)
T7C60 003:940.603 - 0.010ms returns 0xFFFFFFFF
T7C60 003:940.612 JLINK_ReadReg(FPS16)
T7C60 003:940.619 - 0.010ms returns 0x00000000
T7C60 003:940.627 JLINK_ReadReg(FPS17)
T7C60 003:940.634 - 0.010ms returns 0x00000000
T7C60 003:940.643 JLINK_ReadReg(FPS18)
T7C60 003:940.650 - 0.010ms returns 0x00000000
T7C60 003:940.659 JLINK_ReadReg(FPS19)
T7C60 003:940.666 - 0.010ms returns 0x00000000
T7C60 003:940.675 JLINK_ReadReg(FPS20)
T7C60 003:940.682 - 0.010ms returns 0x00000000
T7C60 003:940.690 JLINK_ReadReg(FPS21)
T7C60 003:940.697 - 0.010ms returns 0x00000000
T7C60 003:940.706 JLINK_ReadReg(FPS22)
T7C60 003:940.713 - 0.010ms returns 0x00000000
T7C60 003:940.722 JLINK_ReadReg(FPS23)
T7C60 003:940.729 - 0.010ms returns 0x00000000
T7C60 003:940.737 JLINK_ReadReg(FPS24)
T7C60 003:940.744 - 0.010ms returns 0x00000000
T7C60 003:940.753 JLINK_ReadReg(FPS25)
T7C60 003:940.760 - 0.010ms returns 0x00000000
T7C60 003:940.769 JLINK_ReadReg(FPS26)
T7C60 003:940.776 - 0.010ms returns 0x00000000
T7C60 003:940.784 JLINK_ReadReg(FPS27)
T7C60 003:940.791 - 0.010ms returns 0x00000000
T7C60 003:940.800 JLINK_ReadReg(FPS28)
T7C60 003:940.807 - 0.010ms returns 0x00000000
T7C60 003:940.816 JLINK_ReadReg(FPS29)
T7C60 003:940.823 - 0.010ms returns 0x00000000
T7C60 003:940.831 JLINK_ReadReg(FPS30)
T7C60 003:940.838 - 0.010ms returns 0x00000000
T7C60 003:940.847 JLINK_ReadReg(FPS31)
T7C60 003:940.854 - 0.010ms returns 0xFFFFFFFF
T2098 003:941.762 JLINK_ReadMemEx(0x20020004, 0x4 Bytes, Flags = 0x02000000)
T2098 003:941.786   CPU_ReadMem(64 bytes @ 0x20020000)
T2098 003:942.261   CPU_ReadMem(4 bytes @ 0x20020004)
T2098 003:942.560   failed
T2098 003:942.574 - 0.815ms returns -1 (0xFFFFFFFF)
T2098 003:942.586 JLINK_ReadMemEx(0x20020004, 0x4 Bytes, Flags = 0x02000000)
T2098 003:942.598   CPU_ReadMem(64 bytes @ 0x20020000)
T2098 003:942.944   CPU_ReadMem(4 bytes @ 0x20020004)
T2098 003:943.262   failed
T2098 003:943.276 - 0.693ms returns -1 (0xFFFFFFFF)
T2098 003:943.287 JLINK_ReadMemEx(0x20020004, 0x4 Bytes, Flags = 0x02000000)
T2098 003:943.298   CPU_ReadMem(64 bytes @ 0x20020000)
T2098 003:943.685   CPU_ReadMem(4 bytes @ 0x20020004)
T2098 003:943.964   failed
T2098 003:943.978 - 0.693ms returns -1 (0xFFFFFFFF)
T2098 003:943.989 JLINK_ReadMemEx(0x20020004, 0x4 Bytes, Flags = 0x02000000)
T2098 003:944.000   CPU_ReadMem(64 bytes @ 0x20020000)
T2098 003:944.402   CPU_ReadMem(4 bytes @ 0x20020004)
T2098 003:944.687   failed
T2098 003:944.701 - 0.716ms returns -1 (0xFFFFFFFF)
T2098 003:944.712 JLINK_ReadMemEx(0x20020004, 0x2 Bytes, Flags = 0x02000000)
T2098 003:944.723   CPU_ReadMem(64 bytes @ 0x20020000)
T2098 003:945.115   CPU_ReadMem(2 bytes @ 0x20020004)
T2098 003:945.383   failed
T2098 003:945.397 - 0.688ms returns -1 (0xFFFFFFFF)
T2098 003:945.408 JLINK_ReadMemEx(0x20020004, 0x1 Bytes, Flags = 0x02000000)
T2098 003:945.419   CPU_ReadMem(64 bytes @ 0x20020000)
T2098 003:945.803   CPU_ReadMem(1 bytes @ 0x20020004)
T2098 003:946.228   failed
T2098 003:946.244 - 0.839ms returns -1 (0xFFFFFFFF)
T2098 003:946.337 JLINK_ReadMemEx(0x20020003, 0x1 Bytes, Flags = 0x02000000)
T2098 003:946.352   CPU_ReadMem(64 bytes @ 0x20020000)
T2098 003:946.780   CPU_ReadMem(1 bytes @ 0x20020003)
T2098 003:947.117   failed
T2098 003:947.131 - 0.797ms returns -1 (0xFFFFFFFF)
T2098 003:947.143 JLINK_ReadMemEx(0x20020003, 0x1 Bytes, Flags = 0x02000000)
T2098 003:947.156   CPU_ReadMem(64 bytes @ 0x20020000)
T2098 003:947.582   CPU_ReadMem(1 bytes @ 0x20020003)
T2098 003:947.892   failed
T2098 003:947.906 - 0.766ms returns -1 (0xFFFFFFFF)
T2098 003:947.917 JLINK_ReadMemEx(0x20020003, 0x1 Bytes, Flags = 0x02000000)
T2098 003:947.928   CPU_ReadMem(64 bytes @ 0x20020000)
T2098 003:948.345   CPU_ReadMem(1 bytes @ 0x20020003)
T2098 003:948.625   failed
T2098 003:948.639 - 0.725ms returns -1 (0xFFFFFFFF)
T2098 003:948.650 JLINK_ReadMemEx(0x20020003, 0x1 Bytes, Flags = 0x02000000)
T2098 003:948.661   CPU_ReadMem(64 bytes @ 0x20020000)
T2098 003:949.051   CPU_ReadMem(1 bytes @ 0x20020003)
T2098 003:949.341   failed
T2098 003:949.356 - 0.710ms returns -1 (0xFFFFFFFF)
T2098 003:949.368 JLINK_ReadMemEx(0x20020003, 0x1 Bytes, Flags = 0x02000000)
